
T454C 000:037 SEGGER J-Link V6.12f Log File (0000ms, 0024ms total)
T454C 000:037 DLL Compiled: Jan 13 2017 16:37:50 (0000ms, 0024ms total)
T454C 000:037 Logging started @ 2017-04-08 22:08 (0000ms, 0024ms total)
T454C 000:037 JLINK_SetWarnOutHandler(...) (0000ms, 0024ms total)
T454C 000:037 JLINK_OpenEx(...)
Firmware: J-Link V9 compiled Dec 16 2016 15:34:10
Hardware: V9.10
S/N: 59106098
Feature(s): GDB, RDI, FlashDL, FlashBP, JFlashWEBSRV Webserver running on local port 19080 (0022ms, 0046ms total)
T454C 000:037   returns O.K. (0022ms, 0046ms total)
T454C 000:059 JLINK_SetErrorOutHandler(...) (0000ms, 0046ms total)
T454C 000:059 JLINK_ExecCommand("ProjectFile = "C:\Users\think\Desktop\test1\test2\MDK-ARM\JLinkSettings.ini"", ...). C:\Program Files (x86)\SEGGER\JLink_V612f\JLinkDevices.xml evaluated successfully.  returns 0x00 (0106ms, 0152ms total)
T454C 000:168 JLINK_ExecCommand("Device = STM32F407ZG", ...). Device "STM32F407ZG" selected.  returns 0x00 (0006ms, 0158ms total)
T454C 000:174 JLINK_ExecCommand("DisableConnectionTimeout", ...).   returns 0x01 (0000ms, 0158ms total)
T454C 000:174 JLINK_GetHardwareVersion()  returns 0x16378 (0000ms, 0158ms total)
T454C 000:174 JLINK_GetDLLVersion()  returns 61206 (0000ms, 0158ms total)
T454C 000:174 JLINK_GetFirmwareString(...) (0000ms, 0158ms total)
T454C 000:182 JLINK_GetDLLVersion()  returns 61206 (0000ms, 0158ms total)
T454C 000:182 JLINK_GetCompileDateTime() (0000ms, 0158ms total)
T454C 000:185 JLINK_GetFirmwareString(...) (0000ms, 0158ms total)
T454C 000:188 JLINK_GetHardwareVersion()  returns 0x16378 (0000ms, 0158ms total)
T454C 000:209 JLINK_TIF_Select(JLINKARM_TIF_SWD)  returns 0x00 (0003ms, 0161ms total)
T454C 000:212 JLINK_SetSpeed(2000) (0001ms, 0162ms total)
T454C 000:213 JLINK_GetId() >0x108 TIF>Found SWD-DP with ID 0x2BA01477 >0x0D TIF> >0x28 TIF> >0x0D TIF> >0x28 TIF> >0x0D TIF> >0x28 TIF> >0x0D TIF> >0x28 TIF> >0x0D TIF> >0x21 TIF> >0x0D TIF> >0x28 TIF> >0x0D TIF> >0x28 TIF> >0x0D TIF> >0x28 TIF> >0x0D TIF> >0x21 TIF> >0x0D TIF> >0x21 TIF> >0x0D TIF> >0x28 TIF> >0x0D TIF> >0x21 TIF> >0x0D TIF> >0x21 TIF> >0x0D TIF> >0x28 TIF> >0x0D TIF> >0x21 TIF> >0x0D TIF> >0x21 TIF> >0x0D TIF> >0x28 TIF> >0x0D TIF> >0x21 TIF> >0x0D TIF> >0x21 TIF> >0x0D TIF>
 >0x28 TIF> >0x0D TIF> >0x21 TIF> >0x0D TIF> >0x21 TIF> >0x0D TIF> >0x28 TIF> >0x0D TIF> >0x21 TIF> >0x0D TIF> >0x21 TIF> >0x108 TIF>Found SWD-DP with ID 0x2BA01477 >0x0D TIF> >0x28 TIF> >0x0D TIF> >0x28 TIF> >0x0D TIF> >0x28 TIF> >0x0D TIF> >0x28 TIF> >0x0D TIF> >0x21 TIF> >0x0D TIF> >0x28 TIF> >0x0D TIF> >0x28 TIF> >0x0D TIF> >0x21 TIF> >0x0D TIF> >0x21 TIF> >0x0D TIF> >0x21 TIF>AP-IDR: 0x24770011, Type: AHB-APAHB-AP ROM: 0xE00FF000 (Base addr. of first ROM table) >0x0D TIF> >0x28 TIF> >0x0D TIF>
 >0x28 TIF> >0x0D TIF> >0x28 TIF> >0x0D TIF> >0x21 TIF> >0x0D TIF> >0x21 TIF> >0x0D TIF> >0x28 TIF> >0x0D TIF> >0x21 TIF> >0x0D TIF> >0x21 TIF>Found Cortex-M4 r0p1, Little endian. -- CPU_ReadMem(4 bytes @ 0xE000EDF0) -- CPU_ReadMem(4 bytes @ 0xE0002000)FPUnit: 6 code (BP) slots and 2 literal slots -- CPU_ReadMem(4 bytes @ 0xE000EDFC) -- CPU_ReadMem(4 bytes @ 0xE0001000) -- CPU_WriteMem(4 bytes @ 0xE0001000) -- CPU_ReadMem(4 bytes @ 0xE000ED88) -- CPU_WriteMem(4 bytes @ 0xE000ED88)
 -- CPU_ReadMem(4 bytes @ 0xE000ED88) -- CPU_WriteMem(4 bytes @ 0xE000ED88)CoreSight components:ROMTbl 0 @ E00FF000 -- CPU_ReadMem(16 bytes @ 0xE00FF000) -- CPU_ReadMem(16 bytes @ 0xE000EFF0) -- CPU_ReadMem(16 bytes @ 0xE000EFE0)ROMTbl 0 [0]: FFF0F000, CID: B105E00D, PID: 000BB00C SCS -- CPU_ReadMem(16 bytes @ 0xE0001FF0) -- CPU_ReadMem(16 bytes @ 0xE0001FE0)ROMTbl 0 [1]: FFF02000, CID: B105E00D, PID: 003BB002 DWT -- CPU_ReadMem(16 bytes @ 0xE0002FF0) -- CPU_ReadMem(16 bytes @ 0xE0002FE0)
ROMTbl 0 [2]: FFF03000, CID: B105E00D, PID: 002BB003 FPB -- CPU_ReadMem(16 bytes @ 0xE0000FF0) -- CPU_ReadMem(16 bytes @ 0xE0000FE0)ROMTbl 0 [3]: FFF01000, CID: B105E00D, PID: 003BB001 ITM -- CPU_ReadMem(16 bytes @ 0xE00FF010) -- CPU_ReadMem(16 bytes @ 0xE0040FF0) -- CPU_ReadMem(16 bytes @ 0xE0040FE0)ROMTbl 0 [4]: FFF41000, CID: B105900D, PID: 000BB9A1 TPIU -- CPU_ReadMem(16 bytes @ 0xE0041FF0) -- CPU_ReadMem(16 bytes @ 0xE0041FE0)ROMTbl 0 [5]: FFF42000, CID: B105900D, PID: 000BB925 ETM >0x0D TIF>
 >0x21 TIF>  returns 0x2BA01477 (0083ms, 0245ms total)
T454C 000:296 JLINK_GetDLLVersion()  returns 61206 (0000ms, 0245ms total)
T454C 000:296 JLINK_CORE_GetFound()  returns 0xE0000FF (0000ms, 0245ms total)
T454C 000:296 JLINK_GetDebugInfo(0x100) -- Value=0xE00FF000  returns 0x00 (0000ms, 0245ms total)
T454C 000:299 JLINK_GetDebugInfo(0x100) -- Value=0xE00FF000  returns 0x00 (0000ms, 0245ms total)
T454C 000:299 JLINK_GetDebugInfo(0x101) -- Value=0xE0041000  returns 0x00 (0000ms, 0245ms total)
T454C 000:299 JLINK_GetDebugInfo(0x102) -- Value=0x00000000  returns 0x00 (0000ms, 0245ms total)
T454C 000:299 JLINK_GetDebugInfo(0x103) -- Value=0xE0040000  returns 0x00 (0000ms, 0245ms total)
T454C 000:299 JLINK_GetDebugInfo(0x104) -- Value=0xE0000000  returns 0x00 (0000ms, 0245ms total)
T454C 000:299 JLINK_GetDebugInfo(0x105) -- Value=0xE0001000  returns 0x00 (0000ms, 0245ms total)
T454C 000:299 JLINK_GetDebugInfo(0x106) -- Value=0xE0002000  returns 0x00 (0000ms, 0245ms total)
T454C 000:299 JLINK_GetDebugInfo(0x107) -- Value=0xE000E000  returns 0x00 (0000ms, 0245ms total)
T454C 000:299 JLINK_GetDebugInfo(0x10C) -- Value=0xE000EDF0  returns 0x00 (0000ms, 0245ms total)
T454C 000:299 JLINK_ReadMemU32(0xE000EF40, 0x0001 Items, ...) -- CPU is running -- CPU_ReadMem(4 bytes @ 0xE000EF40) - Data: 21 00 11 10  returns 0x01 (0004ms, 0249ms total)
T454C 000:303 JLINK_ReadMemU32(0xE000EF44, 0x0001 Items, ...) -- CPU is running -- CPU_ReadMem(4 bytes @ 0xE000EF44) - Data: 11 00 00 11  returns 0x01 (0001ms, 0250ms total)
T454C 000:304 JLINK_ReadMemU32(0xE000ED00, 0x0001 Items, ...) -- CPU is running -- CPU_ReadMem(4 bytes @ 0xE000ED00) - Data: 41 C2 0F 41  returns 0x01 (0001ms, 0251ms total)
T454C 000:305 JLINK_SetResetType(JLINKARM_CM3_RESET_TYPE_NORMAL)  returns JLINKARM_CM3_RESET_TYPE_NORMAL (0000ms, 0251ms total)
T454C 000:305 JLINK_Reset() -- CPU is running -- CPU_WriteMem(4 bytes @ 0xE000EDF0) -- CPU is running -- CPU_WriteMem(4 bytes @ 0xE000EDFC) >0x35 TIF> -- CPU is running -- CPU_WriteMem(4 bytes @ 0xE000ED0C) -- CPU is running -- CPU_ReadMem(4 bytes @ 0xE000EDF0) -- CPU is running -- CPU_ReadMem(4 bytes @ 0xE000EDF0) -- CPU is running -- CPU_WriteMem(4 bytes @ 0xE000EDF0) -- CPU is running -- CPU_WriteMem(4 bytes @ 0xE000EDFC) -- CPU is running -- CPU_ReadMem(4 bytes @ 0xE000EDF0)
 -- CPU_WriteMem(4 bytes @ 0xE0002000) -- CPU_ReadMem(4 bytes @ 0xE000EDFC) -- CPU_ReadMem(4 bytes @ 0xE0001000) (0019ms, 0270ms total)
T454C 000:324 JLINK_Halt()  returns 0x00 (0000ms, 0270ms total)
T454C 000:324 JLINK_IsHalted()  returns TRUE (0000ms, 0270ms total)
T454C 000:324 JLINK_ReadMemU32(0xE000EDF0, 0x0001 Items, ...) -- CPU_ReadMem(4 bytes @ 0xE000EDF0) - Data: 03 00 03 00  returns 0x01 (0033ms, 0303ms total)
T454C 000:357 JLINK_WriteU32(0xE000EDF0, 0xA05F0003) -- CPU_WriteMem(4 bytes @ 0xE000EDF0)  returns 0x00 (0001ms, 0304ms total)
T454C 000:358 JLINK_WriteU32(0xE000EDFC, 0x01000000) -- CPU_WriteMem(4 bytes @ 0xE000EDFC)  returns 0x00 (0001ms, 0305ms total)
T454C 000:369 JLINK_GetHWStatus(...)  returns 0x00 (0028ms, 0333ms total)
T454C 000:412 JLINK_GetNumBPUnits(Type = 0xFFFFFF00)  returns 0x06 (0000ms, 0333ms total)
T454C 000:412 JLINK_GetNumBPUnits(Type = 0xF0)  returns 0x2000 (0000ms, 0333ms total)
T454C 000:412 JLINK_GetNumWPUnits()  returns 0x04 (0000ms, 0333ms total)
T454C 000:427 JLINK_GetSpeed()  returns 0x7D0 (0000ms, 0333ms total)
T454C 000:432 JLINK_ReadMemU32(0xE000E004, 0x0001 Items, ...) -- CPU_ReadMem(4 bytes @ 0xE000E004) - Data: 02 00 00 00  returns 0x01 (0007ms, 0340ms total)
T454C 000:439 JLINK_ReadMemU32(0xE000E004, 0x0001 Items, ...) -- CPU_ReadMem(4 bytes @ 0xE000E004) - Data: 02 00 00 00  returns 0x01 (0001ms, 0341ms total)
T454C 000:441 JLINK_WriteMem(0xE0001000, 0x001C Bytes, ...) - Data: 01 00 00 00 00 00 00 00 00 00 00 00 00 00 00 00 ... -- CPU_WriteMem(28 bytes @ 0xE0001000)  returns 0x1C (0001ms, 0342ms total)
T454C 000:442 JLINK_ReadMem (0xE0001000, 0x001C Bytes, ...) -- CPU_ReadMem(28 bytes @ 0xE0001000) - Data: 01 00 00 40 00 00 00 00 00 00 00 00 00 00 00 00 ...  returns 0x00 (0001ms, 0343ms total)
T454C 000:443 JLINK_Halt()  returns 0x00 (0000ms, 0343ms total)
T454C 000:443 JLINK_IsHalted()  returns TRUE (0000ms, 0343ms total)
T454C 000:445 JLINK_WriteMem(0x20000000, 0x0180 Bytes, ...) - Data: 00 BE 0A E0 0D 78 2D 06 68 40 08 24 40 00 00 D3 ... -- CPU_WriteMem(384 bytes @ 0x20000000)  returns 0x180 (0004ms, 0347ms total)
T454C 000:449 JLINK_WriteReg(R0, 0x08000000)  returns 0x00 (0000ms, 0347ms total)
T454C 000:449 JLINK_WriteReg(R1, 0x00B71B00)  returns 0x00 (0000ms, 0347ms total)
T454C 000:449 JLINK_WriteReg(R2, 0x00000001)  returns 0x00 (0000ms, 0347ms total)
T454C 000:449 JLINK_WriteReg(R3, 0x00000000)  returns 0x00 (0000ms, 0347ms total)
T454C 000:449 JLINK_WriteReg(R4, 0x00000000)  returns 0x00 (0000ms, 0347ms total)
T454C 000:449 JLINK_WriteReg(R5, 0x00000000)  returns 0x00 (0000ms, 0347ms total)
T454C 000:449 JLINK_WriteReg(R6, 0x00000000)  returns 0x00 (0000ms, 0347ms total)
T454C 000:449 JLINK_WriteReg(R7, 0x00000000)  returns 0x00 (0001ms, 0348ms total)
T454C 000:450 JLINK_WriteReg(R8, 0x00000000)  returns 0x00 (0000ms, 0348ms total)
T454C 000:450 JLINK_WriteReg(R9, 0x2000017C)  returns 0x00 (0000ms, 0348ms total)
T454C 000:450 JLINK_WriteReg(R10, 0x00000000)  returns 0x00 (0000ms, 0348ms total)
T454C 000:450 JLINK_WriteReg(R11, 0x00000000)  returns 0x00 (0000ms, 0348ms total)
T454C 000:450 JLINK_WriteReg(R12, 0x00000000)  returns 0x00 (0000ms, 0348ms total)
T454C 000:450 JLINK_WriteReg(R13 (SP), 0x20001000)  returns 0x00 (0000ms, 0348ms total)
T454C 000:450 JLINK_WriteReg(R14, 0x20000001)  returns 0x00 (0000ms, 0348ms total)
T454C 000:450 JLINK_WriteReg(R15 (PC), 0x20000054)  returns 0x00 (0000ms, 0348ms total)
T454C 000:450 JLINK_WriteReg(XPSR, 0x01000000)  returns 0x00 (0000ms, 0348ms total)
T454C 000:450 JLINK_WriteReg(MSP, 0x20001000)  returns 0x00 (0000ms, 0348ms total)
T454C 000:450 JLINK_WriteReg(PSP, 0x20001000)  returns 0x00 (0000ms, 0348ms total)
T454C 000:450 JLINK_WriteReg(CFBP, 0x00000000)  returns 0x00 (0000ms, 0348ms total)
T454C 000:450 JLINK_SetBPEx(Addr = 0x20000000, Type = 0xFFFFFFF2) -- CPU_ReadMem(2 bytes @ 0x20000000)  returns 0x00000001 (0000ms, 0348ms total)
T454C 000:450 JLINK_Go() -- CPU_WriteMem(2 bytes @ 0x20000000) -- CPU_ReadMem(4 bytes @ 0xE0001000) -- CPU_WriteMem(4 bytes @ 0xE0002008) -- CPU_WriteMem(4 bytes @ 0xE000200C) -- CPU_WriteMem(4 bytes @ 0xE0002010) -- CPU_WriteMem(4 bytes @ 0xE0002014) -- CPU_WriteMem(4 bytes @ 0xE0002018) -- CPU_WriteMem(4 bytes @ 0xE000201C) -- CPU_WriteMem(4 bytes @ 0xE0001004) (0005ms, 0353ms total)
T454C 000:455 JLINK_IsHalted() -- CPU_ReadMem(2 bytes @ 0x20000000)  returns TRUE (0036ms, 0389ms total)
T454C 000:492 JLINK_ReadReg(R15 (PC))  returns 0x20000000 (0000ms, 0353ms total)
T454C 000:492 JLINK_ClrBPEx(BPHandle = 0x00000001)  returns 0x00 (0000ms, 0353ms total)
T454C 000:492 JLINK_ReadReg(R0)  returns 0x00000000 (0000ms, 0353ms total)
T454C 000:492 JLINK_WriteReg(R0, 0x08000000)  returns 0x00 (0000ms, 0353ms total)
T454C 000:492 JLINK_WriteReg(R1, 0x00004000)  returns 0x00 (0000ms, 0353ms total)
T454C 000:492 JLINK_WriteReg(R2, 0x000000FF)  returns 0x00 (0000ms, 0353ms total)
T454C 000:492 JLINK_WriteReg(R3, 0x00000000)  returns 0x00 (0000ms, 0353ms total)
T454C 000:492 JLINK_WriteReg(R4, 0x00000000)  returns 0x00 (0000ms, 0353ms total)
T454C 000:492 JLINK_WriteReg(R5, 0x00000000)  returns 0x00 (0000ms, 0353ms total)
T454C 000:492 JLINK_WriteReg(R6, 0x00000000)  returns 0x00 (0000ms, 0353ms total)
T454C 000:492 JLINK_WriteReg(R7, 0x00000000)  returns 0x00 (0000ms, 0353ms total)
T454C 000:492 JLINK_WriteReg(R8, 0x00000000)  returns 0x00 (0000ms, 0353ms total)
T454C 000:492 JLINK_WriteReg(R9, 0x2000017C)  returns 0x00 (0000ms, 0353ms total)
T454C 000:492 JLINK_WriteReg(R10, 0x00000000)  returns 0x00 (0000ms, 0353ms total)
T454C 000:492 JLINK_WriteReg(R11, 0x00000000)  returns 0x00 (0000ms, 0353ms total)
T454C 000:492 JLINK_WriteReg(R12, 0x00000000)  returns 0x00 (0000ms, 0353ms total)
T454C 000:492 JLINK_WriteReg(R13 (SP), 0x20001000)  returns 0x00 (0000ms, 0353ms total)
T454C 000:492 JLINK_WriteReg(R14, 0x20000001)  returns 0x00 (0000ms, 0353ms total)
T454C 000:492 JLINK_WriteReg(R15 (PC), 0x20000020)  returns 0x00 (0000ms, 0353ms total)
T454C 000:492 JLINK_WriteReg(XPSR, 0x01000000)  returns 0x00 (0000ms, 0353ms total)
T454C 000:492 JLINK_WriteReg(MSP, 0x20001000)  returns 0x00 (0000ms, 0353ms total)
T454C 000:492 JLINK_WriteReg(PSP, 0x20001000)  returns 0x00 (0000ms, 0353ms total)
T454C 000:492 JLINK_WriteReg(CFBP, 0x00000000)  returns 0x00 (0000ms, 0353ms total)
T454C 000:492 JLINK_SetBPEx(Addr = 0x20000000, Type = 0xFFFFFFF2)  returns 0x00000002 (0000ms, 0353ms total)
T454C 000:492 JLINK_Go() -- CPU_ReadMem(4 bytes @ 0xE0001000) (0003ms, 0356ms total)
T454C 000:495 JLINK_IsHalted() -- CPU_ReadMem(2 bytes @ 0x20000000)  returns TRUE (0004ms, 0360ms total)
T454C 000:499 JLINK_ReadReg(R15 (PC))  returns 0x20000000 (0000ms, 0356ms total)
T454C 000:499 JLINK_ClrBPEx(BPHandle = 0x00000002)  returns 0x00 (0000ms, 0356ms total)
T454C 000:499 JLINK_ReadReg(R0)  returns 0x00000001 (0000ms, 0356ms total)
T454C 000:499 JLINK_WriteReg(R0, 0x08000000)  returns 0x00 (0000ms, 0356ms total)
T454C 000:499 JLINK_WriteReg(R1, 0x00004000)  returns 0x00 (0000ms, 0356ms total)
T454C 000:499 JLINK_WriteReg(R2, 0x000000FF)  returns 0x00 (0000ms, 0356ms total)
T454C 000:499 JLINK_WriteReg(R3, 0x00000000)  returns 0x00 (0000ms, 0356ms total)
T454C 000:499 JLINK_WriteReg(R4, 0x00000000)  returns 0x00 (0000ms, 0356ms total)
T454C 000:499 JLINK_WriteReg(R5, 0x00000000)  returns 0x00 (0000ms, 0356ms total)
T454C 000:499 JLINK_WriteReg(R6, 0x00000000)  returns 0x00 (0000ms, 0356ms total)
T454C 000:499 JLINK_WriteReg(R7, 0x00000000)  returns 0x00 (0000ms, 0356ms total)
T454C 000:499 JLINK_WriteReg(R8, 0x00000000)  returns 0x00 (0000ms, 0356ms total)
T454C 000:499 JLINK_WriteReg(R9, 0x2000017C)  returns 0x00 (0000ms, 0356ms total)
T454C 000:499 JLINK_WriteReg(R10, 0x00000000)  returns 0x00 (0000ms, 0356ms total)
T454C 000:499 JLINK_WriteReg(R11, 0x00000000)  returns 0x00 (0000ms, 0356ms total)
T454C 000:499 JLINK_WriteReg(R12, 0x00000000)  returns 0x00 (0000ms, 0356ms total)
T454C 000:499 JLINK_WriteReg(R13 (SP), 0x20001000)  returns 0x00 (0000ms, 0356ms total)
T454C 000:499 JLINK_WriteReg(R14, 0x20000001)  returns 0x00 (0000ms, 0356ms total)
T454C 000:499 JLINK_WriteReg(R15 (PC), 0x200000BC)  returns 0x00 (0000ms, 0356ms total)
T454C 000:499 JLINK_WriteReg(XPSR, 0x01000000)  returns 0x00 (0000ms, 0356ms total)
T454C 000:499 JLINK_WriteReg(MSP, 0x20001000)  returns 0x00 (0000ms, 0356ms total)
T454C 000:499 JLINK_WriteReg(PSP, 0x20001000)  returns 0x00 (0000ms, 0356ms total)
T454C 000:499 JLINK_WriteReg(CFBP, 0x00000000)  returns 0x00 (0000ms, 0356ms total)
T454C 000:499 JLINK_SetBPEx(Addr = 0x20000000, Type = 0xFFFFFFF2)  returns 0x00000003 (0000ms, 0356ms total)
T454C 000:499 JLINK_Go() -- CPU_ReadMem(4 bytes @ 0xE0001000) (0035ms, 0391ms total)
T454C 000:534 JLINK_IsHalted()  returns FALSE (0000ms, 0391ms total)
T454C 000:581 JLINK_IsHalted()  returns FALSE (0000ms, 0392ms total)
T454C 000:584 JLINK_IsHalted()  returns FALSE (0029ms, 0421ms total)
T454C 000:617 JLINK_IsHalted()  returns FALSE (0000ms, 0392ms total)
T454C 000:619 JLINK_IsHalted()  returns FALSE (0000ms, 0392ms total)
T454C 000:621 JLINK_IsHalted()  returns FALSE (0000ms, 0392ms total)
T454C 000:623 JLINK_IsHalted()  returns FALSE (0032ms, 0424ms total)
T454C 000:660 JLINK_IsHalted()  returns FALSE (0000ms, 0392ms total)
T454C 000:664 JLINK_IsHalted()  returns FALSE (0001ms, 0393ms total)
T454C 000:666 JLINK_IsHalted()  returns FALSE (0031ms, 0423ms total)
T454C 000:721 JLINK_IsHalted()  returns FALSE (0018ms, 0410ms total)
T454C 000:744 JLINK_IsHalted()  returns FALSE (0000ms, 0392ms total)
T454C 000:746 JLINK_IsHalted()  returns FALSE (0001ms, 0393ms total)
T454C 000:751 JLINK_IsHalted()  returns FALSE (0029ms, 0421ms total)
T454C 000:791 JLINK_IsHalted()  returns FALSE (0032ms, 0424ms total)
T454C 000:831 JLINK_IsHalted()  returns FALSE (0000ms, 0392ms total)
T454C 000:833 JLINK_IsHalted()  returns FALSE (0031ms, 0423ms total)
T454C 000:866 JLINK_IsHalted()  returns FALSE (0000ms, 0392ms total)
T454C 000:868 JLINK_IsHalted()  returns FALSE (0001ms, 0393ms total)
T454C 000:871 JLINK_IsHalted()  returns FALSE (0001ms, 0393ms total)
T454C 000:873 JLINK_IsHalted() -- CPU_ReadMem(2 bytes @ 0x20000000)  returns TRUE (0037ms, 0429ms total)
T454C 000:911 JLINK_ReadReg(R15 (PC))  returns 0x20000000 (0000ms, 0392ms total)
T454C 000:911 JLINK_ClrBPEx(BPHandle = 0x00000003)  returns 0x00 (0000ms, 0392ms total)
T454C 000:911 JLINK_ReadReg(R0)  returns 0x00000000 (0000ms, 0392ms total)
T454C 000:912 JLINK_WriteReg(R0, 0x00000001)  returns 0x00 (0000ms, 0392ms total)
T454C 000:912 JLINK_WriteReg(R1, 0x00004000)  returns 0x00 (0000ms, 0392ms total)
T454C 000:912 JLINK_WriteReg(R2, 0x000000FF)  returns 0x00 (0000ms, 0392ms total)
T454C 000:912 JLINK_WriteReg(R3, 0x00000000)  returns 0x00 (0000ms, 0392ms total)
T454C 000:912 JLINK_WriteReg(R4, 0x00000000)  returns 0x00 (0000ms, 0392ms total)
T454C 000:912 JLINK_WriteReg(R5, 0x00000000)  returns 0x00 (0000ms, 0392ms total)
T454C 000:912 JLINK_WriteReg(R6, 0x00000000)  returns 0x00 (0000ms, 0392ms total)
T454C 000:912 JLINK_WriteReg(R7, 0x00000000)  returns 0x00 (0000ms, 0392ms total)
T454C 000:912 JLINK_WriteReg(R8, 0x00000000)  returns 0x00 (0000ms, 0392ms total)
T454C 000:912 JLINK_WriteReg(R9, 0x2000017C)  returns 0x00 (0000ms, 0392ms total)
T454C 000:912 JLINK_WriteReg(R10, 0x00000000)  returns 0x00 (0000ms, 0392ms total)
T454C 000:912 JLINK_WriteReg(R11, 0x00000000)  returns 0x00 (0000ms, 0392ms total)
T454C 000:912 JLINK_WriteReg(R12, 0x00000000)  returns 0x00 (0000ms, 0392ms total)
T454C 000:912 JLINK_WriteReg(R13 (SP), 0x20001000)  returns 0x00 (0000ms, 0392ms total)
T454C 000:912 JLINK_WriteReg(R14, 0x20000001)  returns 0x00 (0000ms, 0392ms total)
T454C 000:912 JLINK_WriteReg(R15 (PC), 0x20000082)  returns 0x00 (0000ms, 0392ms total)
T454C 000:912 JLINK_WriteReg(XPSR, 0x01000000)  returns 0x00 (0000ms, 0392ms total)
T454C 000:912 JLINK_WriteReg(MSP, 0x20001000)  returns 0x00 (0000ms, 0392ms total)
T454C 000:912 JLINK_WriteReg(PSP, 0x20001000)  returns 0x00 (0000ms, 0392ms total)
T454C 000:912 JLINK_WriteReg(CFBP, 0x00000000)  returns 0x00 (0000ms, 0392ms total)
T454C 000:912 JLINK_SetBPEx(Addr = 0x20000000, Type = 0xFFFFFFF2)  returns 0x00000004 (0000ms, 0392ms total)
T454C 000:912 JLINK_Go() -- CPU_ReadMem(4 bytes @ 0xE0001000) (0003ms, 0395ms total)
T454C 000:916 JLINK_IsHalted() -- CPU_ReadMem(2 bytes @ 0x20000000)  returns TRUE (0036ms, 0431ms total)
T454C 000:952 JLINK_ReadReg(R15 (PC))  returns 0x20000000 (0000ms, 0395ms total)
T454C 000:952 JLINK_ClrBPEx(BPHandle = 0x00000004)  returns 0x00 (0000ms, 0395ms total)
T454C 000:952 JLINK_ReadReg(R0)  returns 0x00000000 (0000ms, 0395ms total)
T454C 001:027 JLINK_WriteMem(0x20000000, 0x0180 Bytes, ...) - Data: 00 BE 0A E0 0D 78 2D 06 68 40 08 24 40 00 00 D3 ... -- CPU_WriteMem(384 bytes @ 0x20000000)  returns 0x180 (0006ms, 0401ms total)
T454C 001:033 JLINK_WriteReg(R0, 0x08000000)  returns 0x00 (0000ms, 0401ms total)
T454C 001:033 JLINK_WriteReg(R1, 0x00B71B00)  returns 0x00 (0000ms, 0401ms total)
T454C 001:033 JLINK_WriteReg(R2, 0x00000002)  returns 0x00 (0000ms, 0401ms total)
T454C 001:033 JLINK_WriteReg(R3, 0x00000000)  returns 0x00 (0000ms, 0401ms total)
T454C 001:033 JLINK_WriteReg(R4, 0x00000000)  returns 0x00 (0000ms, 0401ms total)
T454C 001:033 JLINK_WriteReg(R5, 0x00000000)  returns 0x00 (0000ms, 0401ms total)
T454C 001:033 JLINK_WriteReg(R6, 0x00000000)  returns 0x00 (0000ms, 0401ms total)
T454C 001:033 JLINK_WriteReg(R7, 0x00000000)  returns 0x00 (0000ms, 0401ms total)
T454C 001:033 JLINK_WriteReg(R8, 0x00000000)  returns 0x00 (0001ms, 0402ms total)
T454C 001:034 JLINK_WriteReg(R9, 0x2000017C)  returns 0x00 (0000ms, 0402ms total)
T454C 001:034 JLINK_WriteReg(R10, 0x00000000)  returns 0x00 (0000ms, 0402ms total)
T454C 001:034 JLINK_WriteReg(R11, 0x00000000)  returns 0x00 (0000ms, 0402ms total)
T454C 001:034 JLINK_WriteReg(R12, 0x00000000)  returns 0x00 (0000ms, 0402ms total)
T454C 001:034 JLINK_WriteReg(R13 (SP), 0x20001000)  returns 0x00 (0000ms, 0402ms total)
T454C 001:034 JLINK_WriteReg(R14, 0x20000001)  returns 0x00 (0000ms, 0402ms total)
T454C 001:034 JLINK_WriteReg(R15 (PC), 0x20000054)  returns 0x00 (0000ms, 0402ms total)
T454C 001:034 JLINK_WriteReg(XPSR, 0x01000000)  returns 0x00 (0000ms, 0402ms total)
T454C 001:034 JLINK_WriteReg(MSP, 0x20001000)  returns 0x00 (0000ms, 0402ms total)
T454C 001:034 JLINK_WriteReg(PSP, 0x20001000)  returns 0x00 (0000ms, 0402ms total)
T454C 001:034 JLINK_WriteReg(CFBP, 0x00000000)  returns 0x00 (0000ms, 0402ms total)
T454C 001:034 JLINK_SetBPEx(Addr = 0x20000000, Type = 0xFFFFFFF2) -- CPU_ReadMem(2 bytes @ 0x20000000)  returns 0x00000005 (0001ms, 0403ms total)
T454C 001:035 JLINK_Go() -- CPU_WriteMem(2 bytes @ 0x20000000) -- CPU_ReadMem(4 bytes @ 0xE0001000) (0003ms, 0406ms total)
T454C 001:038 JLINK_IsHalted() -- CPU_ReadMem(2 bytes @ 0x20000000)  returns TRUE (0006ms, 0412ms total)
T454C 001:044 JLINK_ReadReg(R15 (PC))  returns 0x20000000 (0000ms, 0406ms total)
T454C 001:044 JLINK_ClrBPEx(BPHandle = 0x00000005)  returns 0x00 (0001ms, 0407ms total)
T454C 001:045 JLINK_ReadReg(R0)  returns 0x00000000 (0000ms, 0407ms total)
T454C 001:045 JLINK_WriteMem(0x20000180, 0x0400 Bytes, ...) - Data: F0 46 00 20 59 02 00 08 5F 16 00 08 2F 15 00 08 ... -- CPU_WriteMem(1024 bytes @ 0x20000180)  returns 0x400 (0039ms, 0446ms total)
T454C 001:085 JLINK_WriteReg(R0, 0x08000000)  returns 0x00 (0000ms, 0446ms total)
T454C 001:085 JLINK_WriteReg(R1, 0x00000400)  returns 0x00 (0000ms, 0446ms total)
T454C 001:085 JLINK_WriteReg(R2, 0x20000180)  returns 0x00 (0000ms, 0446ms total)
T454C 001:085 JLINK_WriteReg(R3, 0x00000000)  returns 0x00 (0000ms, 0446ms total)
T454C 001:085 JLINK_WriteReg(R4, 0x00000000)  returns 0x00 (0000ms, 0446ms total)
T454C 001:085 JLINK_WriteReg(R5, 0x00000000)  returns 0x00 (0000ms, 0446ms total)
T454C 001:085 JLINK_WriteReg(R6, 0x00000000)  returns 0x00 (0000ms, 0446ms total)
T454C 001:085 JLINK_WriteReg(R7, 0x00000000)  returns 0x00 (0000ms, 0446ms total)
T454C 001:085 JLINK_WriteReg(R8, 0x00000000)  returns 0x00 (0000ms, 0446ms total)
T454C 001:085 JLINK_WriteReg(R9, 0x2000017C)  returns 0x00 (0000ms, 0446ms total)
T454C 001:085 JLINK_WriteReg(R10, 0x00000000)  returns 0x00 (0000ms, 0446ms total)
T454C 001:085 JLINK_WriteReg(R11, 0x00000000)  returns 0x00 (0000ms, 0446ms total)
T454C 001:085 JLINK_WriteReg(R12, 0x00000000)  returns 0x00 (0000ms, 0446ms total)
T454C 001:086 JLINK_WriteReg(R13 (SP), 0x20001000)  returns 0x00 (0000ms, 0447ms total)
T454C 001:086 JLINK_WriteReg(R14, 0x20000001)  returns 0x00 (0000ms, 0447ms total)
T454C 001:086 JLINK_WriteReg(R15 (PC), 0x20000108)  returns 0x00 (0000ms, 0447ms total)
T454C 001:086 JLINK_WriteReg(XPSR, 0x01000000)  returns 0x00 (0000ms, 0447ms total)
T454C 001:086 JLINK_WriteReg(MSP, 0x20001000)  returns 0x00 (0000ms, 0447ms total)
T454C 001:086 JLINK_WriteReg(PSP, 0x20001000)  returns 0x00 (0000ms, 0447ms total)
T454C 001:086 JLINK_WriteReg(CFBP, 0x00000000)  returns 0x00 (0000ms, 0447ms total)
T454C 001:086 JLINK_SetBPEx(Addr = 0x20000000, Type = 0xFFFFFFF2)  returns 0x00000006 (0000ms, 0447ms total)
T454C 001:086 JLINK_Go() -- CPU_ReadMem(4 bytes @ 0xE0001000) (0003ms, 0450ms total)
T454C 001:089 JLINK_IsHalted()  returns FALSE (0000ms, 0450ms total)
T454C 001:123 JLINK_IsHalted() -- CPU_ReadMem(2 bytes @ 0x20000000)  returns TRUE (0005ms, 0455ms total)
T454C 001:128 JLINK_ReadReg(R15 (PC))  returns 0x20000000 (0000ms, 0450ms total)
T454C 001:128 JLINK_ClrBPEx(BPHandle = 0x00000006)  returns 0x00 (0000ms, 0450ms total)
T454C 001:128 JLINK_ReadReg(R0)  returns 0x00000000 (0000ms, 0450ms total)
T454C 001:129 JLINK_WriteMem(0x20000180, 0x0400 Bytes, ...) - Data: 09 D0 0D E0 64 0D 1C 60 A7 E7 CA 60 01 68 4A 69 ... -- CPU_WriteMem(1024 bytes @ 0x20000180)  returns 0x400 (0008ms, 0458ms total)
T454C 001:137 JLINK_WriteReg(R0, 0x08000400)  returns 0x00 (0000ms, 0458ms total)
T454C 001:137 JLINK_WriteReg(R1, 0x00000400)  returns 0x00 (0000ms, 0458ms total)
T454C 001:137 JLINK_WriteReg(R2, 0x20000180)  returns 0x00 (0000ms, 0458ms total)
T454C 001:137 JLINK_WriteReg(R3, 0x00000000)  returns 0x00 (0000ms, 0458ms total)
T454C 001:137 JLINK_WriteReg(R4, 0x00000000)  returns 0x00 (0000ms, 0458ms total)
T454C 001:137 JLINK_WriteReg(R5, 0x00000000)  returns 0x00 (0000ms, 0458ms total)
T454C 001:137 JLINK_WriteReg(R6, 0x00000000)  returns 0x00 (0000ms, 0458ms total)
T454C 001:137 JLINK_WriteReg(R7, 0x00000000)  returns 0x00 (0000ms, 0458ms total)
T454C 001:137 JLINK_WriteReg(R8, 0x00000000)  returns 0x00 (0000ms, 0458ms total)
T454C 001:137 JLINK_WriteReg(R9, 0x2000017C)  returns 0x00 (0000ms, 0458ms total)
T454C 001:137 JLINK_WriteReg(R10, 0x00000000)  returns 0x00 (0000ms, 0458ms total)
T454C 001:137 JLINK_WriteReg(R11, 0x00000000)  returns 0x00 (0000ms, 0458ms total)
T454C 001:137 JLINK_WriteReg(R12, 0x00000000)  returns 0x00 (0000ms, 0458ms total)
T454C 001:137 JLINK_WriteReg(R13 (SP), 0x20001000)  returns 0x00 (0000ms, 0458ms total)
T454C 001:137 JLINK_WriteReg(R14, 0x20000001)  returns 0x00 (0000ms, 0458ms total)
T454C 001:137 JLINK_WriteReg(R15 (PC), 0x20000108)  returns 0x00 (0000ms, 0458ms total)
T454C 001:137 JLINK_WriteReg(XPSR, 0x01000000)  returns 0x00 (0000ms, 0458ms total)
T454C 001:137 JLINK_WriteReg(MSP, 0x20001000)  returns 0x00 (0000ms, 0458ms total)
T454C 001:137 JLINK_WriteReg(PSP, 0x20001000)  returns 0x00 (0000ms, 0458ms total)
T454C 001:137 JLINK_WriteReg(CFBP, 0x00000000)  returns 0x00 (0000ms, 0458ms total)
T454C 001:137 JLINK_SetBPEx(Addr = 0x20000000, Type = 0xFFFFFFF2)  returns 0x00000007 (0000ms, 0458ms total)
T454C 001:137 JLINK_Go() -- CPU_ReadMem(4 bytes @ 0xE0001000) (0035ms, 0493ms total)
T454C 001:172 JLINK_IsHalted()  returns FALSE (0001ms, 0494ms total)
T454C 001:180 JLINK_IsHalted() -- CPU_ReadMem(2 bytes @ 0x20000000)  returns TRUE (0035ms, 0528ms total)
T454C 001:215 JLINK_ReadReg(R15 (PC))  returns 0x20000000 (0000ms, 0493ms total)
T454C 001:215 JLINK_ClrBPEx(BPHandle = 0x00000007)  returns 0x00 (0000ms, 0493ms total)
T454C 001:215 JLINK_ReadReg(R0)  returns 0x00000000 (0000ms, 0493ms total)
T454C 001:216 JLINK_WriteMem(0x20000180, 0x0400 Bytes, ...) - Data: C0 1B 0A 28 04 D9 04 F8 38 6F 03 20 65 70 77 E7 ... -- CPU_WriteMem(1024 bytes @ 0x20000180)  returns 0x400 (0008ms, 0501ms total)
T454C 001:224 JLINK_WriteReg(R0, 0x08000800)  returns 0x00 (0000ms, 0501ms total)
T454C 001:224 JLINK_WriteReg(R1, 0x00000400)  returns 0x00 (0000ms, 0501ms total)
T454C 001:224 JLINK_WriteReg(R2, 0x20000180)  returns 0x00 (0000ms, 0501ms total)
T454C 001:224 JLINK_WriteReg(R3, 0x00000000)  returns 0x00 (0000ms, 0501ms total)
T454C 001:224 JLINK_WriteReg(R4, 0x00000000)  returns 0x00 (0000ms, 0501ms total)
T454C 001:224 JLINK_WriteReg(R5, 0x00000000)  returns 0x00 (0000ms, 0501ms total)
T454C 001:224 JLINK_WriteReg(R6, 0x00000000)  returns 0x00 (0000ms, 0501ms total)
T454C 001:224 JLINK_WriteReg(R7, 0x00000000)  returns 0x00 (0000ms, 0501ms total)
T454C 001:224 JLINK_WriteReg(R8, 0x00000000)  returns 0x00 (0000ms, 0501ms total)
T454C 001:224 JLINK_WriteReg(R9, 0x2000017C)  returns 0x00 (0000ms, 0501ms total)
T454C 001:224 JLINK_WriteReg(R10, 0x00000000)  returns 0x00 (0000ms, 0501ms total)
T454C 001:224 JLINK_WriteReg(R11, 0x00000000)  returns 0x00 (0000ms, 0501ms total)
T454C 001:224 JLINK_WriteReg(R12, 0x00000000)  returns 0x00 (0000ms, 0501ms total)
T454C 001:224 JLINK_WriteReg(R13 (SP), 0x20001000)  returns 0x00 (0000ms, 0501ms total)
T454C 001:224 JLINK_WriteReg(R14, 0x20000001)  returns 0x00 (0000ms, 0501ms total)
T454C 001:224 JLINK_WriteReg(R15 (PC), 0x20000108)  returns 0x00 (0000ms, 0501ms total)
T454C 001:224 JLINK_WriteReg(XPSR, 0x01000000)  returns 0x00 (0000ms, 0501ms total)
T454C 001:224 JLINK_WriteReg(MSP, 0x20001000)  returns 0x00 (0000ms, 0501ms total)
T454C 001:224 JLINK_WriteReg(PSP, 0x20001000)  returns 0x00 (0000ms, 0501ms total)
T454C 001:224 JLINK_WriteReg(CFBP, 0x00000000)  returns 0x00 (0000ms, 0501ms total)
T454C 001:224 JLINK_SetBPEx(Addr = 0x20000000, Type = 0xFFFFFFF2)  returns 0x00000008 (0001ms, 0502ms total)
T454C 001:225 JLINK_Go() -- CPU_ReadMem(4 bytes @ 0xE0001000) (0034ms, 0536ms total)
T454C 001:259 JLINK_IsHalted()  returns FALSE (0000ms, 0536ms total)
T454C 001:264 JLINK_IsHalted() -- CPU_ReadMem(2 bytes @ 0x20000000)  returns TRUE (0004ms, 0540ms total)
T454C 001:268 JLINK_ReadReg(R15 (PC))  returns 0x20000000 (0000ms, 0536ms total)
T454C 001:268 JLINK_ClrBPEx(BPHandle = 0x00000008)  returns 0x00 (0000ms, 0536ms total)
T454C 001:268 JLINK_ReadReg(R0)  returns 0x00000000 (0000ms, 0536ms total)
T454C 001:269 JLINK_WriteMem(0x20000180, 0x0400 Bytes, ...) - Data: FB E7 00 00 01 48 00 68 70 47 00 00 5C 00 00 20 ... -- CPU_WriteMem(1024 bytes @ 0x20000180)  returns 0x400 (0039ms, 0575ms total)
T454C 001:308 JLINK_WriteReg(R0, 0x08000C00)  returns 0x00 (0000ms, 0575ms total)
T454C 001:308 JLINK_WriteReg(R1, 0x00000400)  returns 0x00 (0000ms, 0575ms total)
T454C 001:308 JLINK_WriteReg(R2, 0x20000180)  returns 0x00 (0000ms, 0575ms total)
T454C 001:308 JLINK_WriteReg(R3, 0x00000000)  returns 0x00 (0000ms, 0575ms total)
T454C 001:308 JLINK_WriteReg(R4, 0x00000000)  returns 0x00 (0000ms, 0575ms total)
T454C 001:308 JLINK_WriteReg(R5, 0x00000000)  returns 0x00 (0000ms, 0575ms total)
T454C 001:308 JLINK_WriteReg(R6, 0x00000000)  returns 0x00 (0000ms, 0575ms total)
T454C 001:308 JLINK_WriteReg(R7, 0x00000000)  returns 0x00 (0000ms, 0575ms total)
T454C 001:308 JLINK_WriteReg(R8, 0x00000000)  returns 0x00 (0000ms, 0575ms total)
T454C 001:308 JLINK_WriteReg(R9, 0x2000017C)  returns 0x00 (0001ms, 0576ms total)
T454C 001:309 JLINK_WriteReg(R10, 0x00000000)  returns 0x00 (0000ms, 0576ms total)
T454C 001:309 JLINK_WriteReg(R11, 0x00000000)  returns 0x00 (0000ms, 0576ms total)
T454C 001:309 JLINK_WriteReg(R12, 0x00000000)  returns 0x00 (0000ms, 0576ms total)
T454C 001:309 JLINK_WriteReg(R13 (SP), 0x20001000)  returns 0x00 (0000ms, 0576ms total)
T454C 001:309 JLINK_WriteReg(R14, 0x20000001)  returns 0x00 (0000ms, 0576ms total)
T454C 001:309 JLINK_WriteReg(R15 (PC), 0x20000108)  returns 0x00 (0000ms, 0576ms total)
T454C 001:309 JLINK_WriteReg(XPSR, 0x01000000)  returns 0x00 (0000ms, 0576ms total)
T454C 001:309 JLINK_WriteReg(MSP, 0x20001000)  returns 0x00 (0000ms, 0576ms total)
T454C 001:309 JLINK_WriteReg(PSP, 0x20001000)  returns 0x00 (0000ms, 0576ms total)
T454C 001:309 JLINK_WriteReg(CFBP, 0x00000000)  returns 0x00 (0000ms, 0576ms total)
T454C 001:309 JLINK_SetBPEx(Addr = 0x20000000, Type = 0xFFFFFFF2)  returns 0x00000009 (0000ms, 0576ms total)
T454C 001:309 JLINK_Go() -- CPU_ReadMem(4 bytes @ 0xE0001000) (0003ms, 0579ms total)
T454C 001:312 JLINK_IsHalted()  returns FALSE (0001ms, 0580ms total)
T454C 001:315 JLINK_IsHalted() -- CPU_ReadMem(2 bytes @ 0x20000000)  returns TRUE (0036ms, 0615ms total)
T454C 001:351 JLINK_ReadReg(R15 (PC))  returns 0x20000000 (0000ms, 0579ms total)
T454C 001:351 JLINK_ClrBPEx(BPHandle = 0x00000009)  returns 0x00 (0000ms, 0579ms total)
T454C 001:351 JLINK_ReadReg(R0)  returns 0x00000000 (0000ms, 0579ms total)
T454C 001:352 JLINK_WriteMem(0x20000180, 0x0400 Bytes, ...) - Data: 00 24 F4 00 2D E9 F8 4F 05 46 DF F8 FC 92 00 78 ... -- CPU_WriteMem(1024 bytes @ 0x20000180)  returns 0x400 (0008ms, 0587ms total)
T454C 001:360 JLINK_WriteReg(R0, 0x08001000)  returns 0x00 (0000ms, 0587ms total)
T454C 001:360 JLINK_WriteReg(R1, 0x00000400)  returns 0x00 (0000ms, 0587ms total)
T454C 001:360 JLINK_WriteReg(R2, 0x20000180)  returns 0x00 (0000ms, 0587ms total)
T454C 001:360 JLINK_WriteReg(R3, 0x00000000)  returns 0x00 (0000ms, 0587ms total)
T454C 001:360 JLINK_WriteReg(R4, 0x00000000)  returns 0x00 (0000ms, 0587ms total)
T454C 001:360 JLINK_WriteReg(R5, 0x00000000)  returns 0x00 (0000ms, 0587ms total)
T454C 001:360 JLINK_WriteReg(R6, 0x00000000)  returns 0x00 (0000ms, 0587ms total)
T454C 001:360 JLINK_WriteReg(R7, 0x00000000)  returns 0x00 (0000ms, 0587ms total)
T454C 001:360 JLINK_WriteReg(R8, 0x00000000)  returns 0x00 (0000ms, 0587ms total)
T454C 001:360 JLINK_WriteReg(R9, 0x2000017C)  returns 0x00 (0000ms, 0587ms total)
T454C 001:360 JLINK_WriteReg(R10, 0x00000000)  returns 0x00 (0000ms, 0587ms total)
T454C 001:360 JLINK_WriteReg(R11, 0x00000000)  returns 0x00 (0000ms, 0587ms total)
T454C 001:360 JLINK_WriteReg(R12, 0x00000000)  returns 0x00 (0000ms, 0587ms total)
T454C 001:360 JLINK_WriteReg(R13 (SP), 0x20001000)  returns 0x00 (0000ms, 0587ms total)
T454C 001:360 JLINK_WriteReg(R14, 0x20000001)  returns 0x00 (0001ms, 0588ms total)
T454C 001:361 JLINK_WriteReg(R15 (PC), 0x20000108)  returns 0x00 (0000ms, 0588ms total)
T454C 001:361 JLINK_WriteReg(XPSR, 0x01000000)  returns 0x00 (0000ms, 0588ms total)
T454C 001:361 JLINK_WriteReg(MSP, 0x20001000)  returns 0x00 (0000ms, 0588ms total)
T454C 001:361 JLINK_WriteReg(PSP, 0x20001000)  returns 0x00 (0000ms, 0588ms total)
T454C 001:361 JLINK_WriteReg(CFBP, 0x00000000)  returns 0x00 (0000ms, 0588ms total)
T454C 001:361 JLINK_SetBPEx(Addr = 0x20000000, Type = 0xFFFFFFF2)  returns 0x0000000A (0000ms, 0588ms total)
T454C 001:361 JLINK_Go() -- CPU_ReadMem(4 bytes @ 0xE0001000) (0034ms, 0622ms total)
T454C 001:396 JLINK_IsHalted()  returns FALSE (0001ms, 0624ms total)
T454C 001:403 JLINK_IsHalted() -- CPU_ReadMem(2 bytes @ 0x20000000)  returns TRUE (0036ms, 0659ms total)
T454C 001:439 JLINK_ReadReg(R15 (PC))  returns 0x20000000 (0000ms, 0623ms total)
T454C 001:439 JLINK_ClrBPEx(BPHandle = 0x0000000A)  returns 0x00 (0000ms, 0623ms total)
T454C 001:439 JLINK_ReadReg(R0)  returns 0x00000000 (0000ms, 0623ms total)
T454C 001:440 JLINK_WriteMem(0x20000180, 0x0400 Bytes, ...) - Data: 04 01 01 61 02 20 20 76 20 68 80 69 10 F4 40 7F ... -- CPU_WriteMem(1024 bytes @ 0x20000180)  returns 0x400 (0009ms, 0632ms total)
T454C 001:449 JLINK_WriteReg(R0, 0x08001400)  returns 0x00 (0000ms, 0632ms total)
T454C 001:449 JLINK_WriteReg(R1, 0x00000400)  returns 0x00 (0000ms, 0632ms total)
T454C 001:449 JLINK_WriteReg(R2, 0x20000180)  returns 0x00 (0000ms, 0632ms total)
T454C 001:449 JLINK_WriteReg(R3, 0x00000000)  returns 0x00 (0000ms, 0632ms total)
T454C 001:449 JLINK_WriteReg(R4, 0x00000000)  returns 0x00 (0000ms, 0632ms total)
T454C 001:449 JLINK_WriteReg(R5, 0x00000000)  returns 0x00 (0000ms, 0632ms total)
T454C 001:449 JLINK_WriteReg(R6, 0x00000000)  returns 0x00 (0000ms, 0632ms total)
T454C 001:449 JLINK_WriteReg(R7, 0x00000000)  returns 0x00 (0000ms, 0632ms total)
T454C 001:449 JLINK_WriteReg(R8, 0x00000000)  returns 0x00 (0000ms, 0632ms total)
T454C 001:449 JLINK_WriteReg(R9, 0x2000017C)  returns 0x00 (0000ms, 0632ms total)
T454C 001:449 JLINK_WriteReg(R10, 0x00000000)  returns 0x00 (0000ms, 0632ms total)
T454C 001:449 JLINK_WriteReg(R11, 0x00000000)  returns 0x00 (0000ms, 0632ms total)
T454C 001:449 JLINK_WriteReg(R12, 0x00000000)  returns 0x00 (0000ms, 0632ms total)
T454C 001:449 JLINK_WriteReg(R13 (SP), 0x20001000)  returns 0x00 (0000ms, 0632ms total)
T454C 001:449 JLINK_WriteReg(R14, 0x20000001)  returns 0x00 (0000ms, 0632ms total)
T454C 001:449 JLINK_WriteReg(R15 (PC), 0x20000108)  returns 0x00 (0000ms, 0632ms total)
T454C 001:449 JLINK_WriteReg(XPSR, 0x01000000)  returns 0x00 (0000ms, 0632ms total)
T454C 001:449 JLINK_WriteReg(MSP, 0x20001000)  returns 0x00 (0000ms, 0632ms total)
T454C 001:449 JLINK_WriteReg(PSP, 0x20001000)  returns 0x00 (0000ms, 0632ms total)
T454C 001:449 JLINK_WriteReg(CFBP, 0x00000000)  returns 0x00 (0000ms, 0632ms total)
T454C 001:449 JLINK_SetBPEx(Addr = 0x20000000, Type = 0xFFFFFFF2)  returns 0x0000000B (0000ms, 0632ms total)
T454C 001:449 JLINK_Go() -- CPU_ReadMem(4 bytes @ 0xE0001000) (0034ms, 0666ms total)
T454C 001:483 JLINK_IsHalted()  returns FALSE (0001ms, 0667ms total)
T454C 001:495 JLINK_IsHalted() -- CPU_ReadMem(2 bytes @ 0x20000000)  returns TRUE (0036ms, 0702ms total)
T454C 001:531 JLINK_ReadReg(R15 (PC))  returns 0x20000000 (0000ms, 0666ms total)
T454C 001:531 JLINK_ClrBPEx(BPHandle = 0x0000000B)  returns 0x00 (0000ms, 0666ms total)
T454C 001:531 JLINK_ReadReg(R0)  returns 0x00000000 (0000ms, 0666ms total)
T454C 001:532 JLINK_WriteMem(0x20000180, 0x0400 Bytes, ...) - Data: 09 D1 22 E0 D8 F8 00 00 01 1D C8 F8 00 10 01 78 ... -- CPU_WriteMem(1024 bytes @ 0x20000180)  returns 0x400 (0008ms, 0674ms total)
T454C 001:540 JLINK_WriteReg(R0, 0x08001800)  returns 0x00 (0000ms, 0674ms total)
T454C 001:540 JLINK_WriteReg(R1, 0x00000400)  returns 0x00 (0000ms, 0674ms total)
T454C 001:540 JLINK_WriteReg(R2, 0x20000180)  returns 0x00 (0000ms, 0674ms total)
T454C 001:540 JLINK_WriteReg(R3, 0x00000000)  returns 0x00 (0000ms, 0674ms total)
T454C 001:540 JLINK_WriteReg(R4, 0x00000000)  returns 0x00 (0000ms, 0674ms total)
T454C 001:540 JLINK_WriteReg(R5, 0x00000000)  returns 0x00 (0001ms, 0675ms total)
T454C 001:541 JLINK_WriteReg(R6, 0x00000000)  returns 0x00 (0000ms, 0675ms total)
T454C 001:541 JLINK_WriteReg(R7, 0x00000000)  returns 0x00 (0000ms, 0675ms total)
T454C 001:541 JLINK_WriteReg(R8, 0x00000000)  returns 0x00 (0000ms, 0675ms total)
T454C 001:541 JLINK_WriteReg(R9, 0x2000017C)  returns 0x00 (0000ms, 0675ms total)
T454C 001:541 JLINK_WriteReg(R10, 0x00000000)  returns 0x00 (0000ms, 0675ms total)
T454C 001:541 JLINK_WriteReg(R11, 0x00000000)  returns 0x00 (0000ms, 0675ms total)
T454C 001:541 JLINK_WriteReg(R12, 0x00000000)  returns 0x00 (0000ms, 0675ms total)
T454C 001:541 JLINK_WriteReg(R13 (SP), 0x20001000)  returns 0x00 (0000ms, 0675ms total)
T454C 001:541 JLINK_WriteReg(R14, 0x20000001)  returns 0x00 (0000ms, 0675ms total)
T454C 001:541 JLINK_WriteReg(R15 (PC), 0x20000108)  returns 0x00 (0000ms, 0675ms total)
T454C 001:541 JLINK_WriteReg(XPSR, 0x01000000)  returns 0x00 (0000ms, 0675ms total)
T454C 001:541 JLINK_WriteReg(MSP, 0x20001000)  returns 0x00 (0000ms, 0675ms total)
T454C 001:541 JLINK_WriteReg(PSP, 0x20001000)  returns 0x00 (0000ms, 0675ms total)
T454C 001:541 JLINK_WriteReg(CFBP, 0x00000000)  returns 0x00 (0000ms, 0675ms total)
T454C 001:541 JLINK_SetBPEx(Addr = 0x20000000, Type = 0xFFFFFFF2)  returns 0x0000000C (0000ms, 0675ms total)
T454C 001:541 JLINK_Go() -- CPU_ReadMem(4 bytes @ 0xE0001000) (0035ms, 0710ms total)
T454C 001:576 JLINK_IsHalted()  returns FALSE (0001ms, 0711ms total)
T454C 001:597 JLINK_IsHalted() -- CPU_ReadMem(2 bytes @ 0x20000000)  returns TRUE (0022ms, 0732ms total)
T454C 001:619 JLINK_ReadReg(R15 (PC))  returns 0x20000000 (0000ms, 0710ms total)
T454C 001:619 JLINK_ClrBPEx(BPHandle = 0x0000000C)  returns 0x00 (0000ms, 0710ms total)
T454C 001:619 JLINK_ReadReg(R0)  returns 0x00000000 (0000ms, 0710ms total)
T454C 001:620 JLINK_WriteMem(0x20000180, 0x0400 Bytes, ...) - Data: 00 48 01 40 00 18 00 40 00 1C 00 40 00 20 00 40 ... -- CPU_WriteMem(1024 bytes @ 0x20000180)  returns 0x400 (0008ms, 0718ms total)
T454C 001:628 JLINK_WriteReg(R0, 0x08001C00)  returns 0x00 (0000ms, 0718ms total)
T454C 001:628 JLINK_WriteReg(R1, 0x00000400)  returns 0x00 (0000ms, 0718ms total)
T454C 001:628 JLINK_WriteReg(R2, 0x20000180)  returns 0x00 (0000ms, 0718ms total)
T454C 001:628 JLINK_WriteReg(R3, 0x00000000)  returns 0x00 (0000ms, 0718ms total)
T454C 001:628 JLINK_WriteReg(R4, 0x00000000)  returns 0x00 (0000ms, 0718ms total)
T454C 001:628 JLINK_WriteReg(R5, 0x00000000)  returns 0x00 (0000ms, 0718ms total)
T454C 001:628 JLINK_WriteReg(R6, 0x00000000)  returns 0x00 (0000ms, 0718ms total)
T454C 001:628 JLINK_WriteReg(R7, 0x00000000)  returns 0x00 (0000ms, 0718ms total)
T454C 001:628 JLINK_WriteReg(R8, 0x00000000)  returns 0x00 (0000ms, 0718ms total)
T454C 001:628 JLINK_WriteReg(R9, 0x2000017C)  returns 0x00 (0000ms, 0718ms total)
T454C 001:628 JLINK_WriteReg(R10, 0x00000000)  returns 0x00 (0000ms, 0718ms total)
T454C 001:628 JLINK_WriteReg(R11, 0x00000000)  returns 0x00 (0000ms, 0718ms total)
T454C 001:628 JLINK_WriteReg(R12, 0x00000000)  returns 0x00 (0000ms, 0718ms total)
T454C 001:628 JLINK_WriteReg(R13 (SP), 0x20001000)  returns 0x00 (0000ms, 0718ms total)
T454C 001:628 JLINK_WriteReg(R14, 0x20000001)  returns 0x00 (0000ms, 0718ms total)
T454C 001:628 JLINK_WriteReg(R15 (PC), 0x20000108)  returns 0x00 (0001ms, 0719ms total)
T454C 001:629 JLINK_WriteReg(XPSR, 0x01000000)  returns 0x00 (0000ms, 0719ms total)
T454C 001:629 JLINK_WriteReg(MSP, 0x20001000)  returns 0x00 (0000ms, 0719ms total)
T454C 001:629 JLINK_WriteReg(PSP, 0x20001000)  returns 0x00 (0000ms, 0719ms total)
T454C 001:629 JLINK_WriteReg(CFBP, 0x00000000)  returns 0x00 (0000ms, 0719ms total)
T454C 001:629 JLINK_SetBPEx(Addr = 0x20000000, Type = 0xFFFFFFF2)  returns 0x0000000D (0000ms, 0719ms total)
T454C 001:629 JLINK_Go() -- CPU_ReadMem(4 bytes @ 0xE0001000) (0033ms, 0752ms total)
T454C 001:662 JLINK_IsHalted()  returns FALSE (0001ms, 0753ms total)
T454C 001:665 JLINK_IsHalted()  returns FALSE (0000ms, 0752ms total)
T454C 001:668 JLINK_IsHalted() -- CPU_ReadMem(2 bytes @ 0x20000000)  returns TRUE (0004ms, 0756ms total)
T454C 001:673 JLINK_ReadReg(R15 (PC))  returns 0x20000000 (0000ms, 0752ms total)
T454C 001:673 JLINK_ClrBPEx(BPHandle = 0x0000000D)  returns 0x00 (0000ms, 0752ms total)
T454C 001:673 JLINK_ReadReg(R0)  returns 0x00000000 (0000ms, 0752ms total)
T454C 001:674 JLINK_WriteMem(0x20000180, 0x0400 Bytes, ...) - Data: 00 24 48 1C 0E D0 01 B1 0C 46 FF F7 93 FF B8 B1 ... -- CPU_WriteMem(1024 bytes @ 0x20000180)  returns 0x400 (0038ms, 0790ms total)
T454C 001:713 JLINK_WriteReg(R0, 0x08002000)  returns 0x00 (0000ms, 0790ms total)
T454C 001:713 JLINK_WriteReg(R1, 0x00000400)  returns 0x00 (0000ms, 0790ms total)
T454C 001:713 JLINK_WriteReg(R2, 0x20000180)  returns 0x00 (0000ms, 0790ms total)
T454C 001:713 JLINK_WriteReg(R3, 0x00000000)  returns 0x00 (0000ms, 0790ms total)
T454C 001:713 JLINK_WriteReg(R4, 0x00000000)  returns 0x00 (0000ms, 0790ms total)
T454C 001:713 JLINK_WriteReg(R5, 0x00000000)  returns 0x00 (0000ms, 0790ms total)
T454C 001:713 JLINK_WriteReg(R6, 0x00000000)  returns 0x00 (0000ms, 0790ms total)
T454C 001:713 JLINK_WriteReg(R7, 0x00000000)  returns 0x00 (0000ms, 0790ms total)
T454C 001:713 JLINK_WriteReg(R8, 0x00000000)  returns 0x00 (0000ms, 0790ms total)
T454C 001:713 JLINK_WriteReg(R9, 0x2000017C)  returns 0x00 (0000ms, 0790ms total)
T454C 001:713 JLINK_WriteReg(R10, 0x00000000)  returns 0x00 (0000ms, 0790ms total)
T454C 001:713 JLINK_WriteReg(R11, 0x00000000)  returns 0x00 (0000ms, 0790ms total)
T454C 001:713 JLINK_WriteReg(R12, 0x00000000)  returns 0x00 (0000ms, 0790ms total)
T454C 001:713 JLINK_WriteReg(R13 (SP), 0x20001000)  returns 0x00 (0000ms, 0790ms total)
T454C 001:713 JLINK_WriteReg(R14, 0x20000001)  returns 0x00 (0000ms, 0790ms total)
T454C 001:713 JLINK_WriteReg(R15 (PC), 0x20000108)  returns 0x00 (0000ms, 0790ms total)
T454C 001:713 JLINK_WriteReg(XPSR, 0x01000000)  returns 0x00 (0000ms, 0790ms total)
T454C 001:713 JLINK_WriteReg(MSP, 0x20001000)  returns 0x00 (0000ms, 0790ms total)
T454C 001:713 JLINK_WriteReg(PSP, 0x20001000)  returns 0x00 (0000ms, 0790ms total)
T454C 001:713 JLINK_WriteReg(CFBP, 0x00000000)  returns 0x00 (0000ms, 0790ms total)
T454C 001:713 JLINK_SetBPEx(Addr = 0x20000000, Type = 0xFFFFFFF2)  returns 0x0000000E (0000ms, 0790ms total)
T454C 001:713 JLINK_Go() -- CPU_ReadMem(4 bytes @ 0xE0001000) (0004ms, 0794ms total)
T454C 001:717 JLINK_IsHalted()  returns FALSE (0001ms, 0795ms total)
T454C 001:724 JLINK_IsHalted() -- CPU_ReadMem(2 bytes @ 0x20000000)  returns TRUE (0031ms, 0825ms total)
T454C 001:755 JLINK_ReadReg(R15 (PC))  returns 0x20000000 (0000ms, 0794ms total)
T454C 001:755 JLINK_ClrBPEx(BPHandle = 0x0000000E)  returns 0x00 (0000ms, 0794ms total)
T454C 001:755 JLINK_ReadReg(R0)  returns 0x00000000 (0000ms, 0794ms total)
T454C 001:757 JLINK_WriteMem(0x20000180, 0x0400 Bytes, ...) - Data: F0 81 00 00 00 00 00 20 04 49 08 68 18 B1 08 68 ... -- CPU_WriteMem(1024 bytes @ 0x20000180)  returns 0x400 (0008ms, 0802ms total)
T454C 001:765 JLINK_WriteReg(R0, 0x08002400)  returns 0x00 (0000ms, 0802ms total)
T454C 001:765 JLINK_WriteReg(R1, 0x00000400)  returns 0x00 (0000ms, 0802ms total)
T454C 001:765 JLINK_WriteReg(R2, 0x20000180)  returns 0x00 (0000ms, 0802ms total)
T454C 001:765 JLINK_WriteReg(R3, 0x00000000)  returns 0x00 (0000ms, 0802ms total)
T454C 001:765 JLINK_WriteReg(R4, 0x00000000)  returns 0x00 (0000ms, 0802ms total)
T454C 001:765 JLINK_WriteReg(R5, 0x00000000)  returns 0x00 (0000ms, 0802ms total)
T454C 001:765 JLINK_WriteReg(R6, 0x00000000)  returns 0x00 (0000ms, 0802ms total)
T454C 001:765 JLINK_WriteReg(R7, 0x00000000)  returns 0x00 (0000ms, 0802ms total)
T454C 001:765 JLINK_WriteReg(R8, 0x00000000)  returns 0x00 (0000ms, 0802ms total)
T454C 001:765 JLINK_WriteReg(R9, 0x2000017C)  returns 0x00 (0000ms, 0802ms total)
T454C 001:765 JLINK_WriteReg(R10, 0x00000000)  returns 0x00 (0000ms, 0802ms total)
T454C 001:765 JLINK_WriteReg(R11, 0x00000000)  returns 0x00 (0001ms, 0803ms total)
T454C 001:766 JLINK_WriteReg(R12, 0x00000000)  returns 0x00 (0000ms, 0803ms total)
T454C 001:766 JLINK_WriteReg(R13 (SP), 0x20001000)  returns 0x00 (0000ms, 0803ms total)
T454C 001:766 JLINK_WriteReg(R14, 0x20000001)  returns 0x00 (0000ms, 0803ms total)
T454C 001:766 JLINK_WriteReg(R15 (PC), 0x20000108)  returns 0x00 (0000ms, 0803ms total)
T454C 001:766 JLINK_WriteReg(XPSR, 0x01000000)  returns 0x00 (0000ms, 0803ms total)
T454C 001:766 JLINK_WriteReg(MSP, 0x20001000)  returns 0x00 (0000ms, 0803ms total)
T454C 001:766 JLINK_WriteReg(PSP, 0x20001000)  returns 0x00 (0000ms, 0803ms total)
T454C 001:766 JLINK_WriteReg(CFBP, 0x00000000)  returns 0x00 (0000ms, 0803ms total)
T454C 001:766 JLINK_SetBPEx(Addr = 0x20000000, Type = 0xFFFFFFF2)  returns 0x0000000F (0000ms, 0803ms total)
T454C 001:766 JLINK_Go() -- CPU_ReadMem(4 bytes @ 0xE0001000) (0033ms, 0836ms total)
T454C 001:800 JLINK_IsHalted()  returns FALSE (0000ms, 0836ms total)
T454C 001:807 JLINK_IsHalted() -- CPU_ReadMem(2 bytes @ 0x20000000)  returns TRUE (0037ms, 0873ms total)
T454C 001:844 JLINK_ReadReg(R15 (PC))  returns 0x20000000 (0000ms, 0836ms total)
T454C 001:844 JLINK_ClrBPEx(BPHandle = 0x0000000F)  returns 0x00 (0000ms, 0836ms total)
T454C 001:844 JLINK_ReadReg(R0)  returns 0x00000000 (0000ms, 0836ms total)
T454C 001:846 JLINK_WriteMem(0x20000180, 0x0400 Bytes, ...) - Data: 70 B5 0D 46 50 B1 15 4C 21 68 18 31 FF F7 FE FE ... -- CPU_WriteMem(1024 bytes @ 0x20000180)  returns 0x400 (0008ms, 0844ms total)
T454C 001:854 JLINK_WriteReg(R0, 0x08002800)  returns 0x00 (0000ms, 0844ms total)
T454C 001:854 JLINK_WriteReg(R1, 0x00000400)  returns 0x00 (0000ms, 0844ms total)
T454C 001:854 JLINK_WriteReg(R2, 0x20000180)  returns 0x00 (0000ms, 0844ms total)
T454C 001:854 JLINK_WriteReg(R3, 0x00000000)  returns 0x00 (0000ms, 0844ms total)
T454C 001:854 JLINK_WriteReg(R4, 0x00000000)  returns 0x00 (0000ms, 0844ms total)
T454C 001:854 JLINK_WriteReg(R5, 0x00000000)  returns 0x00 (0000ms, 0844ms total)
T454C 001:854 JLINK_WriteReg(R6, 0x00000000)  returns 0x00 (0000ms, 0844ms total)
T454C 001:854 JLINK_WriteReg(R7, 0x00000000)  returns 0x00 (0000ms, 0844ms total)
T454C 001:854 JLINK_WriteReg(R8, 0x00000000)  returns 0x00 (0000ms, 0844ms total)
T454C 001:854 JLINK_WriteReg(R9, 0x2000017C)  returns 0x00 (0000ms, 0844ms total)
T454C 001:855 JLINK_WriteReg(R10, 0x00000000)  returns 0x00 (0000ms, 0845ms total)
T454C 001:855 JLINK_WriteReg(R11, 0x00000000)  returns 0x00 (0000ms, 0845ms total)
T454C 001:855 JLINK_WriteReg(R12, 0x00000000)  returns 0x00 (0000ms, 0845ms total)
T454C 001:855 JLINK_WriteReg(R13 (SP), 0x20001000)  returns 0x00 (0000ms, 0845ms total)
T454C 001:855 JLINK_WriteReg(R14, 0x20000001)  returns 0x00 (0000ms, 0845ms total)
T454C 001:855 JLINK_WriteReg(R15 (PC), 0x20000108)  returns 0x00 (0000ms, 0845ms total)
T454C 001:855 JLINK_WriteReg(XPSR, 0x01000000)  returns 0x00 (0000ms, 0845ms total)
T454C 001:855 JLINK_WriteReg(MSP, 0x20001000)  returns 0x00 (0000ms, 0845ms total)
T454C 001:855 JLINK_WriteReg(PSP, 0x20001000)  returns 0x00 (0000ms, 0845ms total)
T454C 001:855 JLINK_WriteReg(CFBP, 0x00000000)  returns 0x00 (0000ms, 0845ms total)
T454C 001:855 JLINK_SetBPEx(Addr = 0x20000000, Type = 0xFFFFFFF2)  returns 0x00000010 (0000ms, 0845ms total)
T454C 001:855 JLINK_Go() -- CPU_ReadMem(4 bytes @ 0xE0001000) (0034ms, 0879ms total)
T454C 001:889 JLINK_IsHalted()  returns FALSE (0001ms, 0880ms total)
T454C 001:902 JLINK_IsHalted() -- CPU_ReadMem(2 bytes @ 0x20000000)  returns TRUE (0030ms, 0909ms total)
T454C 001:932 JLINK_ReadReg(R15 (PC))  returns 0x20000000 (0000ms, 0879ms total)
T454C 001:932 JLINK_ClrBPEx(BPHandle = 0x00000010)  returns 0x00 (0000ms, 0879ms total)
T454C 001:932 JLINK_ReadReg(R0)  returns 0x00000000 (0000ms, 0879ms total)
T454C 001:933 JLINK_WriteMem(0x20000180, 0x0400 Bytes, ...) - Data: 00 28 EE D0 04 F1 10 00 00 F0 B4 FB 01 28 E3 D0 ... -- CPU_WriteMem(1024 bytes @ 0x20000180)  returns 0x400 (0009ms, 0888ms total)
T454C 001:942 JLINK_WriteReg(R0, 0x08002C00)  returns 0x00 (0000ms, 0888ms total)
T454C 001:942 JLINK_WriteReg(R1, 0x00000400)  returns 0x00 (0000ms, 0888ms total)
T454C 001:942 JLINK_WriteReg(R2, 0x20000180)  returns 0x00 (0000ms, 0888ms total)
T454C 001:942 JLINK_WriteReg(R3, 0x00000000)  returns 0x00 (0000ms, 0888ms total)
T454C 001:942 JLINK_WriteReg(R4, 0x00000000)  returns 0x00 (0000ms, 0888ms total)
T454C 001:942 JLINK_WriteReg(R5, 0x00000000)  returns 0x00 (0000ms, 0888ms total)
T454C 001:943 JLINK_WriteReg(R6, 0x00000000)  returns 0x00 (0000ms, 0888ms total)
T454C 001:943 JLINK_WriteReg(R7, 0x00000000)  returns 0x00 (0000ms, 0888ms total)
T454C 001:943 JLINK_WriteReg(R8, 0x00000000)  returns 0x00 (0000ms, 0888ms total)
T454C 001:943 JLINK_WriteReg(R9, 0x2000017C)  returns 0x00 (0000ms, 0888ms total)
